T539C 3011:512 SEGGER J-Link V6.32i Log File (0001ms, 8887ms total)
T539C 3011:512 DLL Compiled: Jul 24 2018 15:19:55 (0001ms, 8887ms total)
T539C 3011:512 Logging started @ 2021-05-25 23:48 (0001ms, 8887ms total)
T539C 3011:513 JLINK_SetWarnOutHandler(...) (0000ms, 8887ms total)
T539C 3011:513 JLINK_OpenEx(...)
Firmware: J-Link V11 compiled Apr 27 2021 16:36:21
Hardware: V11.00
S/N: 260106173
Feature(s): FlashBP, GDB, FlashDL, JFlash, RDI
TELNET listener socket opened on port 19021WEBSRV 
Starting webserver (0012ms, 8899ms total)
T539C 3011:513 WEBSRV Webserver running on local port 19080 (0012ms, 8899ms total)
T539C 3011:513   returns O.K. (0012ms, 8899ms total)
T539C 3011:525 JLINK_GetEmuCaps()  returns 0xB9FF7BBF (0000ms, 8899ms total)
T539C 3011:525 JLINK_TIF_GetAvailable(...) (0001ms, 8900ms total)
T539C 3011:526 JLINK_SetErrorOutHandler(...) (0000ms, 8900ms total)
T539C 3011:526 JLINK_ExecCommand("ProjectFile = "E:\projects\stm32-cube\stm32_sram\MDK-ARM\JLinkSettings.ini"", ...).   returns 0x00 (0001ms, 8901ms total)
T539C 3011:527 JLINK_ExecCommand("Device = STM32F407IGTx", ...). Device "STM32F407IG" selected.  returns 0x00 (0001ms, 8902ms total)
T539C 3011:528 JLINK_ExecCommand("DisableConnectionTimeout", ...).   returns 0x01 (0000ms, 8902ms total)
T539C 3011:528 JLINK_GetHardwareVersion()  returns 0x1ADB0 (0000ms, 8902ms total)
T539C 3011:528 JLINK_GetDLLVersion()  returns 63209 (0000ms, 8902ms total)
T539C 3011:528 JLINK_GetFirmwareString(...) (0000ms, 8902ms total)
T539C 3011:528 JLINK_GetDLLVersion()  returns 63209 (0000ms, 8902ms total)
T539C 3011:528 JLINK_GetCompileDateTime() (0000ms, 8902ms total)
T539C 3011:528 JLINK_GetFirmwareString(...) (0000ms, 8902ms total)
T539C 3011:528 JLINK_GetHardwareVersion()  returns 0x1ADB0 (0000ms, 8902ms total)
T539C 3011:528 JLINK_TIF_Select(JLINKARM_TIF_JTAG)  returns 0x00 (0001ms, 8903ms total)
T539C 3011:529 JLINK_SetSpeed(5000) (0000ms, 8903ms total)
T539C 3011:529 JLINK_GetIdData(...) >0x2F8 JTAG>TotalIRLen = 9, IRPrint = 0x0011 >0x30 JTAG> >0x50 JTAG>JTAG chain detection found 2 devices: #0 Id: 0x4BA00477, IRLen: 04, CoreSight JTAG-DP #1 Id: 0x06413041, IRLen: 05, STM32 Boundary Scan >0x40 JTAG> >0x40 JTAG> >0x40 JTAG> >0x30 JTAG> >0x40 JTAG> >0x40 JTAG> >0x40 JTAG> >0x40 JTAG> >0x40 JTAG> >0x40 JTAG> >0x40 JTAG> >0x40 JTAG> >0x40 JTAG> >0x40 JTAG> >0x40 JTAG> >0x40 JTAG> >0x40 JTAG> >0x40 JTAG> >0x40 JTAG> >0x40 JTAG> >0x40 JTAG> >0x40 JTAG>
 >0x40 JTAG> >0x40 JTAG> >0x2F8 JTAG>TotalIRLen = 9, IRPrint = 0x0011 >0x30 JTAG> >0x50 JTAG>JTAG chain detection found 2 devices: #0 Id: 0x4BA00477, IRLen: 04, CoreSight JTAG-DP #1 Id: 0x06413041, IRLen: 05, STM32 Boundary ScanScanning AP map to find all available APs >0x80 JTAG> >0x50 JTAG> >0x40 JTAG> >0x40 JTAG> >0x50 JTAG> >0x40 JTAG>AP[1]: Stopped AP scan as end of AP map has been reachedAP[0]: AHB-AP (IDR: 0x24770011)Iterating through AP map to find AHB-AP to use >0x80 JTAG> >0x50 JTAG>
 >0x50 JTAG> >0x80 JTAG> >0x40 JTAG> >0x30 JTAG> >0x40 JTAG> >0x40 JTAG>AP[0]: Core foundAP[0]: AHB-AP ROM base: 0xE00FF000 >0x40 JTAG> >0x40 JTAG> >0x30 JTAG> >0x40 JTAG> >0x40 JTAG>CPUID register: 0x410FC241. Implementer code: 0x41 (ARM)Found Cortex-M4 r0p1, Little endian. -- Max. mem block: 0x000046F8 -- CPU_ReadMem(4 bytes @ 0xE000EDF0) -- CPU_WriteMem(4 bytes @ 0xE000EDF0) -- CPU_ReadMem(4 bytes @ 0xE0002000)FPUnit: 6 code (BP) slots and 2 literal slots -- CPU_ReadMem(4 bytes @ 0xE000EDFC)
 -- CPU_WriteMem(4 bytes @ 0xE000EDFC) -- CPU_ReadMem(4 bytes @ 0xE0001000) -- CPU_WriteMem(4 bytes @ 0xE0001000) -- CPU_ReadMem(4 bytes @ 0xE000ED88) -- CPU_WriteMem(4 bytes @ 0xE000ED88) -- CPU_ReadMem(4 bytes @ 0xE000ED88) -- CPU_WriteMem(4 bytes @ 0xE000ED88)CoreSight components:ROMTbl[0] @ E00FF000 -- CPU_ReadMem(16 bytes @ 0xE00FF000) -- CPU_ReadMem(16 bytes @ 0xE000EFF0) -- CPU_ReadMem(16 bytes @ 0xE000EFE0)ROMTbl[0][0]: E000E000, CID: B105E00D, PID: 000BB00C SCS-M7
 -- CPU_ReadMem(16 bytes @ 0xE0001FF0) -- CPU_ReadMem(16 bytes @ 0xE0001FE0)ROMTbl[0][1]: E0001000, CID: B105E00D, PID: 003BB002 DWT -- CPU_ReadMem(16 bytes @ 0xE0002FF0) -- CPU_ReadMem(16 bytes @ 0xE0002FE0)ROMTbl[0][2]: E0002000, CID: B105E00D, PID: 002BB003 FPB -- CPU_ReadMem(16 bytes @ 0xE0000FF0) -- CPU_ReadMem(16 bytes @ 0xE0000FE0)ROMTbl[0][3]: E0000000, CID: B105E00D, PID: 003BB001 ITM -- CPU_ReadMem(16 bytes @ 0xE00FF010) -- CPU_ReadMem(16 bytes @ 0xE0040FF0)
 -- CPU_ReadMem(16 bytes @ 0xE0040FE0)ROMTbl[0][4]: E0040000, CID: B105900D, PID: 000BB9A1 TPIU -- CPU_ReadMem(16 bytes @ 0xE0041FF0) -- CPU_ReadMem(16 bytes @ 0xE0041FE0)ROMTbl[0][5]: E0041000, CID: B105900D, PID: 000BB925 ETM ScanLen=9 NumDevices=2 aId[0]=0x4BA00477 aIrRead[0]=0 aScanLen[0]=0 aScanRead[0]=0 (0022ms, 8925ms total)
T539C 3011:551 JLINK_JTAG_GetDeviceID(DeviceIndex = 0)  returns 0x4BA00477 (0000ms, 8925ms total)
T539C 3011:551 JLINK_JTAG_GetDeviceInfo(DeviceIndex = 0)  returns 0x00 (0000ms, 8925ms total)
T539C 3011:551 JLINK_JTAG_GetDeviceID(DeviceIndex = 1)  returns 0x6413041 (0000ms, 8925ms total)
T539C 3011:551 JLINK_JTAG_GetDeviceInfo(DeviceIndex = 1)  returns 0x00 (0000ms, 8925ms total)
T539C 3011:551 JLINK_GetDLLVersion()  returns 63209 (0000ms, 8925ms total)
T539C 3011:551 JLINK_CORE_GetFound()  returns 0xE0000FF (0000ms, 8925ms total)
T539C 3011:551 JLINK_GetDebugInfo(0x100 = JLINKARM_ROM_TABLE_ADDR_INDEX) -- Value=0xE00FF000  returns 0x00 (0000ms, 8925ms total)
T539C 3011:551 JLINK_GetDebugInfo(0x100 = JLINKARM_ROM_TABLE_ADDR_INDEX) -- Value=0xE00FF000  returns 0x00 (0000ms, 8925ms total)
T539C 3011:551 JLINK_GetDebugInfo(0x101 = JLINKARM_DEBUG_INFO_ETM_ADDR_INDEX) -- Value=0xE0041000  returns 0x00 (0000ms, 8925ms total)
T539C 3011:551 JLINK_ReadMemEx(0xE0041FD0, 0x0020 Bytes, ..., Flags = 0x02000004) -- CPU_ReadMem(32 bytes @ 0xE0041FD0) - Data: 04 00 00 00 00 00 00 00 00 00 00 00 00 00 00 00 ...  returns 0x20 (0001ms, 8926ms total)
T539C 3011:552 JLINK_GetDebugInfo(0x102 = JLINKARM_DEBUG_INFO_MTB_ADDR_INDEX) -- Value=0x00000000  returns 0x00 (0000ms, 8926ms total)
T539C 3011:552 JLINK_GetDebugInfo(0x103 = JLINKARM_DEBUG_INFO_TPIU_ADDR_INDEX) -- Value=0xE0040000  returns 0x00 (0000ms, 8926ms total)
T539C 3011:552 JLINK_GetDebugInfo(0x104 = JLINKARM_DEBUG_INFO_ITM_ADDR_INDEX) -- Value=0xE0000000  returns 0x00 (0000ms, 8926ms total)
T539C 3011:552 JLINK_GetDebugInfo(0x105 = JLINKARM_DEBUG_INFO_DWT_ADDR_INDEX) -- Value=0xE0001000  returns 0x00 (0000ms, 8926ms total)
T539C 3011:552 JLINK_GetDebugInfo(0x106 = JLINKARM_DEBUG_INFO_FPB_ADDR_INDEX) -- Value=0xE0002000  returns 0x00 (0000ms, 8926ms total)
T539C 3011:552 JLINK_GetDebugInfo(0x107 = JLINKARM_DEBUG_INFO_NVIC_ADDR_INDEX) -- Value=0xE000E000  returns 0x00 (0000ms, 8926ms total)
T539C 3011:552 JLINK_GetDebugInfo(0x10C = JLINKARM_DEBUG_INFO_DBG_ADDR_INDEX) -- Value=0xE000EDF0  returns 0x00 (0000ms, 8926ms total)
T539C 3011:552 JLINK_GetDebugInfo(0x01 = Unknown) -- Value=0x00000001  returns 0x00 (0000ms, 8926ms total)
T539C 3011:552 JLINK_ReadMemU32(0xE000ED00, 0x0001 Items, ...) -- CPU_ReadMem(4 bytes @ 0xE000ED00) - Data: 41 C2 0F 41  returns 0x01 (0000ms, 8926ms total)
T539C 3011:552 JLINK_GetDebugInfo(0x10F = JLINKARM_DEBUG_INFO_HAS_CORTEX_M_SECURITY_EXT_INDEX) -- Value=0x00000000  returns 0x00 (0000ms, 8926ms total)
T539C 3011:552 JLINK_SetResetType(JLINKARM_CM3_RESET_TYPE_NORMAL)  returns JLINKARM_CM3_RESET_TYPE_NORMAL (0000ms, 8926ms total)
T539C 3011:552 JLINK_Reset() -- CPU is running -- CPU_WriteMem(4 bytes @ 0xE000EDF0) -- CPU is running -- CPU_WriteMem(4 bytes @ 0xE000EDFC)Reset: Halt core after reset via DEMCR.VC_CORERESET.Reset: Reset device via AIRCR.SYSRESETREQ. -- CPU is running -- CPU_WriteMem(4 bytes @ 0xE000ED0C) -- CPU_ReadMem(4 bytes @ 0xE000EDF0) -- CPU_ReadMem(4 bytes @ 0xE000EDF0) -- CPU is running -- CPU_WriteMem(4 bytes @ 0xE000EDF0) -- CPU is running -- CPU_WriteMem(4 bytes @ 0xE000EDFC)
 -- CPU_ReadMem(4 bytes @ 0xE000EDF0) -- CPU_WriteMem(4 bytes @ 0xE000EDFC) -- CPU_WriteMem(4 bytes @ 0xE0001028) -- CPU_WriteMem(4 bytes @ 0xE0001038) -- CPU_WriteMem(4 bytes @ 0xE0001048) -- CPU_WriteMem(4 bytes @ 0xE0001058) -- CPU_WriteMem(4 bytes @ 0xE0002000) -- CPU_ReadMem(4 bytes @ 0xE000EDFC) -- CPU_ReadMem(4 bytes @ 0xE0001000) (0064ms, 8990ms total)
T539C 3011:616 JLINK_ReadReg(R15 (PC))  returns 0x0800019C (0000ms, 8990ms total)
T539C 3011:616 JLINK_ReadReg(XPSR)  returns 0x01000000 (0000ms, 8990ms total)
T539C 3011:616 JLINK_Halt()  returns 0x00 (0000ms, 8990ms total)
T539C 3011:616 JLINK_ReadMemU32(0xE000EDF0, 0x0001 Items, ...) -- CPU_ReadMem(4 bytes @ 0xE000EDF0) - Data: 03 00 03 00  returns 0x01 (0000ms, 8990ms total)
T539C 3011:616 JLINK_WriteU32(0xE000EDF0, 0xA05F0003) -- CPU_WriteMem(4 bytes @ 0xE000EDF0)  returns 0x00 (0000ms, 8990ms total)
T539C 3011:616 JLINK_WriteU32(0xE000EDFC, 0x01000000) -- CPU_WriteMem(4 bytes @ 0xE000EDFC)  returns 0x00 (0001ms, 8991ms total)
T539C 3011:617 JLINK_GetHWStatus(...)  returns 0x00 (0000ms, 8991ms total)
T539C 3011:617 JLINK_GetNumBPUnits(Type = 0xFFFFFF00)  returns 0x06 (0000ms, 8991ms total)
T539C 3011:617 JLINK_GetNumBPUnits(Type = 0xF0)  returns 0x2000 (0000ms, 8991ms total)
T539C 3011:617 JLINK_GetNumWPUnits()  returns 0x04 (0000ms, 8991ms total)
T539C 3011:617 JLINK_GetSpeed()  returns 0x1388 (0000ms, 8991ms total)
T539C 3011:617 JLINK_ReadMemU32(0xE000E004, 0x0001 Items, ...) -- CPU_ReadMem(4 bytes @ 0xE000E004) - Data: 02 00 00 00  returns 0x01 (0000ms, 8991ms total)
T539C 3011:617 JLINK_ReadMemU32(0xE000E004, 0x0001 Items, ...) -- CPU_ReadMem(4 bytes @ 0xE000E004) - Data: 02 00 00 00  returns 0x01 (0001ms, 8992ms total)
T539C 3011:618 JLINK_WriteMemEx(0xE0001000, 0x001C Bytes, ..., Flags = 0x02000004) - Data: 01 00 00 00 00 00 00 00 00 00 00 00 00 00 00 00 ... -- CPU_WriteMem(28 bytes @ 0xE0001000)  returns 0x1C (0000ms, 8992ms total)
T539C 3011:618 JLINK_ReadReg(R15 (PC))  returns 0x0800019C (0000ms, 8992ms total)
T539C 3011:618 JLINK_ReadReg(XPSR)  returns 0x01000000 (0000ms, 8992ms total)
T539C 3011:621 JLINK_ReadMemEx(0xE0001004, 0x0004 Bytes, ..., Flags = 0x02000000) - Data: 00 00 00 00  returns 0x04 (0000ms, 8992ms total)
T539C 3011:703 JLINK_SetResetType(JLINKARM_CM3_RESET_TYPE_NORMAL)  returns JLINKARM_CM3_RESET_TYPE_NORMAL (0000ms, 8992ms total)
T539C 3011:703 JLINK_Reset() -- CPU_WriteMem(4 bytes @ 0xE000EDF0) -- CPU_WriteMem(4 bytes @ 0xE000EDFC)Reset: Halt core after reset via DEMCR.VC_CORERESET.Reset: Reset device via AIRCR.SYSRESETREQ. -- CPU_WriteMem(4 bytes @ 0xE000ED0C) -- CPU_ReadMem(4 bytes @ 0xE000EDF0) -- CPU_ReadMem(4 bytes @ 0xE000EDF0) -- CPU_WriteMem(4 bytes @ 0xE000EDF0) -- CPU_WriteMem(4 bytes @ 0xE000EDFC) -- CPU_ReadMem(4 bytes @ 0xE000EDF0) -- CPU_WriteMem(4 bytes @ 0xE000EDFC) -- CPU_WriteMem(4 bytes @ 0xE0001028)
 -- CPU_WriteMem(4 bytes @ 0xE0001038) -- CPU_WriteMem(4 bytes @ 0xE0001048) -- CPU_WriteMem(4 bytes @ 0xE0001058) -- CPU_WriteMem(4 bytes @ 0xE0002000) -- CPU_ReadMem(4 bytes @ 0xE000EDFC) -- CPU_ReadMem(4 bytes @ 0xE0001000) (0064ms, 9056ms total)
T539C 3011:767 JLINK_ReadReg(R15 (PC))  returns 0x0800019C (0000ms, 9056ms total)
T539C 3011:767 JLINK_ReadReg(XPSR)  returns 0x01000000 (0000ms, 9056ms total)
T539C 3011:768 JLINK_ReadMemEx(0x08000188, 0x003C Bytes, ..., Flags = 0x02000000) -- CPU_ReadMem(128 bytes @ 0x08000180) -- Updating C cache (128 bytes @ 0x08000180) -- Read from C cache (60 bytes @ 0x08000188) - Data: DF F8 0C D0 00 F0 7A F8 00 48 00 47 BD 14 00 08 ...  returns 0x3C (0001ms, 9057ms total)
T539C 3013:366 JLINK_ReadReg(R0)  returns 0x00000000 (0000ms, 9057ms total)
T539C 3013:366 JLINK_ReadReg(R1)  returns 0x00000000 (0000ms, 9057ms total)
T539C 3013:366 JLINK_ReadReg(R2)  returns 0x00000000 (0000ms, 9057ms total)
T539C 3013:366 JLINK_ReadReg(R3)  returns 0x00000000 (0000ms, 9057ms total)
T539C 3013:366 JLINK_ReadReg(R4)  returns 0x00000000 (0000ms, 9057ms total)
T539C 3013:366 JLINK_ReadReg(R5)  returns 0x00000000 (0000ms, 9057ms total)
T539C 3013:366 JLINK_ReadReg(R6)  returns 0x00000000 (0000ms, 9057ms total)
T539C 3013:366 JLINK_ReadReg(R7)  returns 0x00000000 (0000ms, 9057ms total)
T539C 3013:366 JLINK_ReadReg(R8)  returns 0x00000000 (0001ms, 9058ms total)
T539C 3013:367 JLINK_ReadReg(R9)  returns 0x00000000 (0000ms, 9058ms total)
T539C 3013:367 JLINK_ReadReg(R10)  returns 0x00000000 (0000ms, 9058ms total)
T539C 3013:367 JLINK_ReadReg(R11)  returns 0x00000000 (0000ms, 9058ms total)
T539C 3013:367 JLINK_ReadReg(R12)  returns 0x00000000 (0000ms, 9058ms total)
T539C 3013:367 JLINK_ReadReg(R13 (SP))  returns 0x200010E8 (0000ms, 9058ms total)
T539C 3013:367 JLINK_ReadReg(R14)  returns 0xFFFFFFFF (0000ms, 9058ms total)
T539C 3013:367 JLINK_ReadReg(R15 (PC))  returns 0x0800019C (0000ms, 9058ms total)
T539C 3013:367 JLINK_ReadReg(XPSR)  returns 0x01000000 (0000ms, 9058ms total)
T539C 3013:367 JLINK_ReadReg(MSP)  returns 0x200010E8 (0000ms, 9058ms total)
T539C 3013:367 JLINK_ReadReg(PSP)  returns 0x00000000 (0000ms, 9058ms total)
T539C 3013:367 JLINK_ReadReg(CFBP)  returns 0x00000000 (0000ms, 9058ms total)
T539C 3013:367 JLINK_ReadReg(FPSCR)  returns 0x00000000 (0003ms, 9061ms total)
T539C 3013:370 JLINK_ReadReg(FPS0)  returns 0x00000000 (0000ms, 9061ms total)
T539C 3013:370 JLINK_ReadReg(FPS1)  returns 0x00000000 (0000ms, 9061ms total)
T539C 3013:370 JLINK_ReadReg(FPS2)  returns 0x00000000 (0000ms, 9061ms total)
T539C 3013:370 JLINK_ReadReg(FPS3)  returns 0x00000000 (0000ms, 9061ms total)
T539C 3013:370 JLINK_ReadReg(FPS4)  returns 0x00000000 (0000ms, 9061ms total)
T539C 3013:370 JLINK_ReadReg(FPS5)  returns 0x00000000 (0000ms, 9061ms total)
T539C 3013:370 JLINK_ReadReg(FPS6)  returns 0x00000000 (0000ms, 9061ms total)
T539C 3013:370 JLINK_ReadReg(FPS7)  returns 0x00000000 (0000ms, 9061ms total)
T539C 3013:370 JLINK_ReadReg(FPS8)  returns 0x00000000 (0000ms, 9061ms total)
T539C 3013:370 JLINK_ReadReg(FPS9)  returns 0x00000000 (0000ms, 9061ms total)
T539C 3013:370 JLINK_ReadReg(FPS10)  returns 0x00000000 (0000ms, 9061ms total)
T539C 3013:370 JLINK_ReadReg(FPS11)  returns 0x00000000 (0000ms, 9061ms total)
T539C 3013:370 JLINK_ReadReg(FPS12)  returns 0x00000000 (0000ms, 9061ms total)
T539C 3013:370 JLINK_ReadReg(FPS13)  returns 0x00000000 (0000ms, 9061ms total)
T539C 3013:370 JLINK_ReadReg(FPS14)  returns 0x00000000 (0000ms, 9061ms total)
T539C 3013:370 JLINK_ReadReg(FPS15)  returns 0x00000000 (0000ms, 9061ms total)
T539C 3013:370 JLINK_ReadReg(FPS16)  returns 0x00000000 (0000ms, 9061ms total)
T539C 3013:370 JLINK_ReadReg(FPS17)  returns 0x00000000 (0000ms, 9061ms total)
T539C 3013:370 JLINK_ReadReg(FPS18)  returns 0x00000000 (0001ms, 9062ms total)
T539C 3013:371 JLINK_ReadReg(FPS19)  returns 0x00000000 (0000ms, 9062ms total)
T539C 3013:371 JLINK_ReadReg(FPS20)  returns 0x00000000 (0000ms, 9062ms total)
T539C 3013:371 JLINK_ReadReg(FPS21)  returns 0x00000000 (0001ms, 9063ms total)
T539C 3013:372 JLINK_ReadReg(FPS22)  returns 0x00000000 (0000ms, 9063ms total)
T539C 3013:372 JLINK_ReadReg(FPS23)  returns 0x00000000 (0000ms, 9063ms total)
T539C 3013:372 JLINK_ReadReg(FPS24)  returns 0x00000000 (0000ms, 9063ms total)
T539C 3013:372 JLINK_ReadReg(FPS25)  returns 0x00000000 (0000ms, 9063ms total)
T539C 3013:372 JLINK_ReadReg(FPS26)  returns 0x00000000 (0000ms, 9063ms total)
T539C 3013:372 JLINK_ReadReg(FPS27)  returns 0x00000000 (0000ms, 9063ms total)
T539C 3013:372 JLINK_ReadReg(FPS28)  returns 0x00000000 (0000ms, 9063ms total)
T539C 3013:372 JLINK_ReadReg(FPS29)  returns 0x00000000 (0000ms, 9063ms total)
T539C 3013:372 JLINK_ReadReg(FPS30)  returns 0x00000000 (0000ms, 9063ms total)
T539C 3013:372 JLINK_ReadReg(FPS31)  returns 0x00000000 (0000ms, 9063ms total)
T519C 3013:428 JLINK_ReadMemEx(0x0800019C, 0x0002 Bytes, ..., Flags = 0x02000000) -- Read from C cache (2 bytes @ 0x0800019C) - Data: 06 48  returns 0x02 (0000ms, 9063ms total)
T519C 3013:428 JLINK_SetBPEx(Addr = 0x080014BC, Type = 0xFFFFFFF2)  returns 0x00000001 (0000ms, 9063ms total)
T519C 3013:428 JLINK_SetBPEx(Addr = 0x0800129C, Type = 0xFFFFFFF2)  returns 0x00000002 (0000ms, 9063ms total)
T519C 3013:428 JLINK_Go() -- CPU_ReadMem(4 bytes @ 0xE0001000) -- CPU_WriteMem(4 bytes @ 0xE0002008) -- CPU_WriteMem(4 bytes @ 0xE000200C) -- CPU_WriteMem(4 bytes @ 0xE0002010) -- CPU_WriteMem(4 bytes @ 0xE0002014) -- CPU_WriteMem(4 bytes @ 0xE0002018) -- CPU_WriteMem(4 bytes @ 0xE000201C) -- CPU_WriteMem(4 bytes @ 0xE0001004) (0002ms, 9065ms total)
T519C 3013:531 JLINK_IsHalted()  returns TRUE (0001ms, 9066ms total)
T519C 3013:533 JLINK_Halt()  returns 0x00 (0000ms, 9065ms total)
T519C 3013:533 JLINK_IsHalted()  returns TRUE (0000ms, 9065ms total)
T519C 3013:533 JLINK_IsHalted()  returns TRUE (0000ms, 9065ms total)
T519C 3013:533 JLINK_IsHalted()  returns TRUE (0000ms, 9065ms total)
T519C 3013:533 JLINK_ReadReg(R15 (PC))  returns 0x080014BC (0000ms, 9065ms total)
T519C 3013:533 JLINK_ReadReg(XPSR)  returns 0x61000000 (0000ms, 9065ms total)
T519C 3013:533 JLINK_ClrBPEx(BPHandle = 0x00000001)  returns 0x00 (0000ms, 9065ms total)
T519C 3013:533 JLINK_ClrBPEx(BPHandle = 0x00000002)  returns 0x00 (0000ms, 9065ms total)
T519C 3013:533 JLINK_ReadMemU32(0xE000ED30, 0x0001 Items, ...) -- CPU_ReadMem(4 bytes @ 0xE000ED30) - Data: 02 00 00 00  returns 0x01 (0000ms, 9065ms total)
T519C 3013:533 JLINK_ReadMemU32(0xE0001028, 0x0001 Items, ...) -- CPU_ReadMem(4 bytes @ 0xE0001028) - Data: 00 00 00 00  returns 0x01 (0000ms, 9065ms total)
T519C 3013:533 JLINK_ReadMemU32(0xE0001038, 0x0001 Items, ...) -- CPU_ReadMem(4 bytes @ 0xE0001038) - Data: 00 02 00 00  returns 0x01 (0001ms, 9066ms total)
T519C 3013:534 JLINK_ReadMemU32(0xE0001048, 0x0001 Items, ...) -- CPU_ReadMem(4 bytes @ 0xE0001048) - Data: 00 00 00 00  returns 0x01 (0000ms, 9066ms total)
T519C 3013:534 JLINK_ReadMemU32(0xE0001058, 0x0001 Items, ...) -- CPU_ReadMem(4 bytes @ 0xE0001058) - Data: 00 00 00 00  returns 0x01 (0000ms, 9066ms total)
T519C 3013:534 JLINK_ReadReg(R0)  returns 0x080014BD (0000ms, 9066ms total)
T519C 3013:534 JLINK_ReadReg(R1)  returns 0x200010E8 (0000ms, 9066ms total)
T519C 3013:534 JLINK_ReadReg(R2)  returns 0x00000000 (0000ms, 9066ms total)
T519C 3013:534 JLINK_ReadReg(R3)  returns 0x080014AD (0000ms, 9066ms total)
T519C 3013:534 JLINK_ReadReg(R4)  returns 0x08001544 (0000ms, 9066ms total)
T519C 3013:534 JLINK_ReadReg(R5)  returns 0x08001544 (0000ms, 9066ms total)
T519C 3013:534 JLINK_ReadReg(R6)  returns 0x00000000 (0000ms, 9066ms total)
T519C 3013:534 JLINK_ReadReg(R7)  returns 0x00000000 (0000ms, 9066ms total)
T519C 3013:534 JLINK_ReadReg(R8)  returns 0x00000000 (0000ms, 9066ms total)
T519C 3013:534 JLINK_ReadReg(R9)  returns 0x00000000 (0000ms, 9066ms total)
T519C 3013:534 JLINK_ReadReg(R10)  returns 0x00000000 (0000ms, 9066ms total)
T519C 3013:534 JLINK_ReadReg(R11)  returns 0x00000000 (0000ms, 9066ms total)
T519C 3013:534 JLINK_ReadReg(R12)  returns 0x00000000 (0000ms, 9066ms total)
T519C 3013:534 JLINK_ReadReg(R13 (SP))  returns 0x200010E8 (0001ms, 9067ms total)
T519C 3013:535 JLINK_ReadReg(R14)  returns 0x080002A1 (0000ms, 9067ms total)
T519C 3013:535 JLINK_ReadReg(R15 (PC))  returns 0x080014BC (0000ms, 9067ms total)
T519C 3013:535 JLINK_ReadReg(XPSR)  returns 0x61000000 (0000ms, 9067ms total)
T519C 3013:535 JLINK_ReadReg(MSP)  returns 0x200010E8 (0000ms, 9067ms total)
T519C 3013:535 JLINK_ReadReg(PSP)  returns 0x00000000 (0000ms, 9067ms total)
T519C 3013:535 JLINK_ReadReg(CFBP)  returns 0x00000000 (0000ms, 9067ms total)
T519C 3013:535 JLINK_ReadReg(FPSCR)  returns 0x00000000 (0002ms, 9069ms total)
T519C 3013:537 JLINK_ReadReg(FPS0)  returns 0x00000000 (0000ms, 9069ms total)
T519C 3013:537 JLINK_ReadReg(FPS1)  returns 0x00000000 (0000ms, 9069ms total)
T519C 3013:537 JLINK_ReadReg(FPS2)  returns 0x00000000 (0000ms, 9069ms total)
T519C 3013:537 JLINK_ReadReg(FPS3)  returns 0x00000000 (0000ms, 9069ms total)
T519C 3013:537 JLINK_ReadReg(FPS4)  returns 0x00000000 (0000ms, 9069ms total)
T519C 3013:537 JLINK_ReadReg(FPS5)  returns 0x00000000 (0000ms, 9069ms total)
T519C 3013:537 JLINK_ReadReg(FPS6)  returns 0x00000000 (0000ms, 9069ms total)
T519C 3013:537 JLINK_ReadReg(FPS7)  returns 0x00000000 (0000ms, 9069ms total)
T519C 3013:537 JLINK_ReadReg(FPS8)  returns 0x00000000 (0000ms, 9069ms total)
T519C 3013:537 JLINK_ReadReg(FPS9)  returns 0x00000000 (0000ms, 9069ms total)
T519C 3013:537 JLINK_ReadReg(FPS10)  returns 0x00000000 (0000ms, 9069ms total)
T519C 3013:537 JLINK_ReadReg(FPS11)  returns 0x00000000 (0000ms, 9069ms total)
T519C 3013:537 JLINK_ReadReg(FPS12)  returns 0x00000000 (0000ms, 9069ms total)
T519C 3013:537 JLINK_ReadReg(FPS13)  returns 0x00000000 (0000ms, 9069ms total)
T519C 3013:537 JLINK_ReadReg(FPS14)  returns 0x00000000 (0000ms, 9069ms total)
T519C 3013:537 JLINK_ReadReg(FPS15)  returns 0x00000000 (0000ms, 9069ms total)
T519C 3013:538 JLINK_ReadReg(FPS16)  returns 0x00000000 (0000ms, 9070ms total)
T519C 3013:538 JLINK_ReadReg(FPS17)  returns 0x00000000 (0000ms, 9070ms total)
T519C 3013:538 JLINK_ReadReg(FPS18)  returns 0x00000000 (0000ms, 9070ms total)
T519C 3013:538 JLINK_ReadReg(FPS19)  returns 0x00000000 (0000ms, 9070ms total)
T519C 3013:538 JLINK_ReadReg(FPS20)  returns 0x00000000 (0000ms, 9070ms total)
T519C 3013:538 JLINK_ReadReg(FPS21)  returns 0x00000000 (0000ms, 9070ms total)
T519C 3013:538 JLINK_ReadReg(FPS22)  returns 0x00000000 (0000ms, 9070ms total)
T519C 3013:538 JLINK_ReadReg(FPS23)  returns 0x00000000 (0000ms, 9070ms total)
T519C 3013:538 JLINK_ReadReg(FPS24)  returns 0x00000000 (0000ms, 9070ms total)
T519C 3013:538 JLINK_ReadReg(FPS25)  returns 0x00000000 (0000ms, 9070ms total)
T519C 3013:538 JLINK_ReadReg(FPS26)  returns 0x00000000 (0000ms, 9070ms total)
T519C 3013:538 JLINK_ReadReg(FPS27)  returns 0x00000000 (0000ms, 9070ms total)
T519C 3013:538 JLINK_ReadReg(FPS28)  returns 0x00000000 (0000ms, 9070ms total)
T519C 3013:538 JLINK_ReadReg(FPS29)  returns 0x00000000 (0000ms, 9070ms total)
T519C 3013:538 JLINK_ReadReg(FPS30)  returns 0x00000000 (0000ms, 9070ms total)
T519C 3013:538 JLINK_ReadReg(FPS31)  returns 0x00000000 (0000ms, 9070ms total)
T539C 3013:538 JLINK_ReadMemEx(0x200010E0, 0x0004 Bytes, ..., Flags = 0x02000000) -- CPU_ReadMem(64 bytes @ 0x200010C0) -- Updating C cache (64 bytes @ 0x200010C0) -- Read from C cache (4 bytes @ 0x200010E0) - Data: 00 00 00 00  returns 0x04 (0001ms, 9071ms total)
T539C 3013:539 JLINK_ReadMemEx(0x00000000, 0x0004 Bytes, ..., Flags = 0x02000000) -- CPU_ReadMem(4 bytes @ 0x00000004) -- CPU_ReadMem(64 bytes @ 0x08000000) -- Updating C cache (64 bytes @ 0x08000000) -- Read from C cache (4 bytes @ 0x08000000) - Data: E8 10 00 20  returns 0x04 (0001ms, 9072ms total)
T539C 3013:541 JLINK_ReadMemU32(0xE0001004, 0x0001 Items, ...) -- CPU_ReadMem(4 bytes @ 0xE0001004) - Data: BD 19 00 00  returns 0x01 (0000ms, 9072ms total)
T539C 3013:550 JLINK_ReadMemEx(0x080013BC, 0x003C Bytes, ..., Flags = 0x02000000) -- CPU_ReadMem(128 bytes @ 0x08001380) -- Updating C cache (128 bytes @ 0x08001380) -- Read from C cache (60 bytes @ 0x080013BC) - Data: 00 F0 4E F8 A5 20 00 F0 4B F8 04 46 85 F8 26 00 ...  returns 0x3C (0001ms, 9073ms total)
T539C 3013:551 JLINK_ReadMemEx(0x080013F8, 0x0008 Bytes, ..., Flags = 0x02000000) -- Read from C cache (8 bytes @ 0x080013F8) - Data: 31 F8 04 46 85 F8 25 00  returns 0x08 (0000ms, 9073ms total)
T539C 3013:551 JLINK_ReadMemEx(0x08001400, 0x0034 Bytes, ..., Flags = 0x02000000) -- CPU_ReadMem(64 bytes @ 0x08001400) -- Updating C cache (64 bytes @ 0x08001400) -- Read from C cache (52 bytes @ 0x08001400) - Data: E4 E7 00 00 00 00 02 40 C0 00 00 20 70 B5 11 4D ...  returns 0x34 (0000ms, 9073ms total)
T539C 3013:551 JLINK_ReadMemEx(0x08001434, 0x003C Bytes, ..., Flags = 0x02000000) -- CPU_ReadMem(64 bytes @ 0x08001440) -- Updating C cache (64 bytes @ 0x08001440) -- Read from C cache (60 bytes @ 0x08001434) - Data: A5 20 00 F0 11 F8 31 19 64 1C E4 B2 48 70 08 2C ...  returns 0x3C (0001ms, 9074ms total)
T539C 3013:552 JLINK_ReadMemEx(0x08001470, 0x003C Bytes, ..., Flags = 0x02000000) -- CPU_ReadMem(64 bytes @ 0x08001480) -- Updating C cache (64 bytes @ 0x08001480) -- Read from C cache (60 bytes @ 0x08001470) - Data: 9D F8 04 00 0E BD 00 00 18 00 00 20 09 07 09 0E ...  returns 0x3C (0000ms, 9074ms total)
T539C 3013:553 JLINK_ReadMemEx(0x080014AC, 0x003C Bytes, ..., Flags = 0x02000000) -- CPU_ReadMem(64 bytes @ 0x080014C0) -- Updating C cache (64 bytes @ 0x080014C0) -- Read from C cache (60 bytes @ 0x080014AC) - Data: 00 20 01 E0 01 C1 12 1F 00 2A FB D1 70 47 00 00 ...  returns 0x3C (0000ms, 9074ms total)
T519C 3015:026 JLINK_ReadMemEx(0x080014BC, 0x0002 Bytes, ..., Flags = 0x02000000) -- Read from C cache (2 bytes @ 0x080014BC) - Data: 08 B5  returns 0x02 (0000ms, 9074ms total)
T519C 3015:026 JLINK_SetBPEx(Addr = 0x0800129C, Type = 0xFFFFFFF2)  returns 0x00000003 (0000ms, 9074ms total)
T519C 3015:026 JLINK_Go() -- CPU_ReadMem(4 bytes @ 0xE0001000) -- CPU_WriteMem(4 bytes @ 0xE0002008) -- CPU_WriteMem(4 bytes @ 0xE000200C) (0001ms, 9075ms total)
T519C 3015:128 JLINK_IsHalted()  returns TRUE (0002ms, 9077ms total)
T519C 3015:130 JLINK_Halt()  returns 0x00 (0000ms, 9075ms total)
T519C 3015:130 JLINK_IsHalted()  returns TRUE (0000ms, 9075ms total)
T519C 3015:130 JLINK_IsHalted()  returns TRUE (0000ms, 9075ms total)
T519C 3015:130 JLINK_IsHalted()  returns TRUE (0000ms, 9075ms total)
T519C 3015:130 JLINK_ReadReg(R15 (PC))  returns 0x0800129C (0000ms, 9075ms total)
T519C 3015:130 JLINK_ReadReg(XPSR)  returns 0x01000000 (0000ms, 9075ms total)
T519C 3015:130 JLINK_ClrBPEx(BPHandle = 0x00000003)  returns 0x00 (0000ms, 9075ms total)
T519C 3015:130 JLINK_ReadMemU32(0xE000ED30, 0x0001 Items, ...) -- CPU_ReadMem(4 bytes @ 0xE000ED30) - Data: 02 00 00 00  returns 0x01 (0000ms, 9075ms total)
T519C 3015:130 JLINK_ReadMemU32(0xE0001028, 0x0001 Items, ...) -- CPU_ReadMem(4 bytes @ 0xE0001028) - Data: 00 00 00 00  returns 0x01 (0001ms, 9076ms total)
T519C 3015:131 JLINK_ReadMemU32(0xE0001038, 0x0001 Items, ...) -- CPU_ReadMem(4 bytes @ 0xE0001038) - Data: 00 02 00 00  returns 0x01 (0000ms, 9076ms total)
T519C 3015:131 JLINK_ReadMemU32(0xE0001048, 0x0001 Items, ...) -- CPU_ReadMem(4 bytes @ 0xE0001048) - Data: 00 00 00 00  returns 0x01 (0001ms, 9077ms total)
T519C 3015:132 JLINK_ReadMemU32(0xE0001058, 0x0001 Items, ...) -- CPU_ReadMem(4 bytes @ 0xE0001058) - Data: 00 00 00 00  returns 0x01 (0000ms, 9077ms total)
T519C 3015:132 JLINK_ReadReg(R0)  returns 0x00EF4015 (0000ms, 9077ms total)
T519C 3015:132 JLINK_ReadReg(R1)  returns 0x00000010 (0000ms, 9077ms total)
T519C 3015:132 JLINK_ReadReg(R2)  returns 0x00000001 (0000ms, 9077ms total)
T519C 3015:132 JLINK_ReadReg(R3)  returns 0x000000A5 (0000ms, 9077ms total)
T519C 3015:132 JLINK_ReadReg(R4)  returns 0x200000C0 (0000ms, 9077ms total)
T519C 3015:132 JLINK_ReadReg(R5)  returns 0x08001544 (0000ms, 9077ms total)
T519C 3015:132 JLINK_ReadReg(R6)  returns 0x00000001 (0000ms, 9077ms total)
T519C 3015:132 JLINK_ReadReg(R7)  returns 0x00000000 (0000ms, 9077ms total)
T519C 3015:132 JLINK_ReadReg(R8)  returns 0x00000000 (0000ms, 9077ms total)
T519C 3015:132 JLINK_ReadReg(R9)  returns 0x00000000 (0000ms, 9077ms total)
T519C 3015:132 JLINK_ReadReg(R10)  returns 0x00000000 (0000ms, 9077ms total)
T519C 3015:132 JLINK_ReadReg(R11)  returns 0x00000000 (0000ms, 9077ms total)
T519C 3015:132 JLINK_ReadReg(R12)  returns 0x0000C000 (0000ms, 9077ms total)
T519C 3015:132 JLINK_ReadReg(R13 (SP))  returns 0x200010C8 (0000ms, 9077ms total)
T519C 3015:132 JLINK_ReadReg(R14)  returns 0x08001391 (0000ms, 9077ms total)
T519C 3015:132 JLINK_ReadReg(R15 (PC))  returns 0x0800129C (0000ms, 9077ms total)
T519C 3015:132 JLINK_ReadReg(XPSR)  returns 0x01000000 (0000ms, 9077ms total)
T519C 3015:132 JLINK_ReadReg(MSP)  returns 0x200010C8 (0000ms, 9077ms total)
T519C 3015:132 JLINK_ReadReg(PSP)  returns 0x00000000 (0000ms, 9077ms total)
T519C 3015:132 JLINK_ReadReg(CFBP)  returns 0x00000000 (0000ms, 9077ms total)
T519C 3015:132 JLINK_ReadReg(FPSCR)  returns 0x00000000 (0003ms, 9080ms total)
T519C 3015:135 JLINK_ReadReg(FPS0)  returns 0x00000000 (0000ms, 9080ms total)
T519C 3015:135 JLINK_ReadReg(FPS1)  returns 0x00000000 (0000ms, 9080ms total)
T519C 3015:135 JLINK_ReadReg(FPS2)  returns 0x00000000 (0000ms, 9080ms total)
T519C 3015:135 JLINK_ReadReg(FPS3)  returns 0x00000000 (0000ms, 9080ms total)
T519C 3015:135 JLINK_ReadReg(FPS4)  returns 0x00000000 (0000ms, 9080ms total)
T519C 3015:135 JLINK_ReadReg(FPS5)  returns 0x00000000 (0000ms, 9080ms total)
T519C 3015:135 JLINK_ReadReg(FPS6)  returns 0x00000000 (0000ms, 9080ms total)
T519C 3015:135 JLINK_ReadReg(FPS7)  returns 0x00000000 (0000ms, 9080ms total)
T519C 3015:135 JLINK_ReadReg(FPS8)  returns 0x00000000 (0000ms, 9080ms total)
T519C 3015:135 JLINK_ReadReg(FPS9)  returns 0x00000000 (0000ms, 9080ms total)
T519C 3015:135 JLINK_ReadReg(FPS10)  returns 0x00000000 (0000ms, 9080ms total)
T519C 3015:135 JLINK_ReadReg(FPS11)  returns 0x00000000 (0001ms, 9081ms total)
T519C 3015:136 JLINK_ReadReg(FPS12)  returns 0x00000000 (0000ms, 9081ms total)
T519C 3015:136 JLINK_ReadReg(FPS13)  returns 0x00000000 (0000ms, 9081ms total)
T519C 3015:136 JLINK_ReadReg(FPS14)  returns 0x00000000 (0000ms, 9081ms total)
T519C 3015:136 JLINK_ReadReg(FPS15)  returns 0x00000000 (0000ms, 9081ms total)
T519C 3015:136 JLINK_ReadReg(FPS16)  returns 0x00000000 (0000ms, 9081ms total)
T519C 3015:136 JLINK_ReadReg(FPS17)  returns 0x00000000 (0000ms, 9081ms total)
T519C 3015:136 JLINK_ReadReg(FPS18)  returns 0x00000000 (0000ms, 9081ms total)
T519C 3015:136 JLINK_ReadReg(FPS19)  returns 0x00000000 (0000ms, 9081ms total)
T519C 3015:136 JLINK_ReadReg(FPS20)  returns 0x00000000 (0000ms, 9081ms total)
T519C 3015:136 JLINK_ReadReg(FPS21)  returns 0x00000000 (0000ms, 9081ms total)
T519C 3015:136 JLINK_ReadReg(FPS22)  returns 0x00000000 (0000ms, 9081ms total)
T519C 3015:136 JLINK_ReadReg(FPS23)  returns 0x00000000 (0000ms, 9081ms total)
T519C 3015:136 JLINK_ReadReg(FPS24)  returns 0x00000000 (0000ms, 9081ms total)
T519C 3015:136 JLINK_ReadReg(FPS25)  returns 0x00000000 (0000ms, 9081ms total)
T519C 3015:136 JLINK_ReadReg(FPS26)  returns 0x00000000 (0000ms, 9081ms total)
T519C 3015:136 JLINK_ReadReg(FPS27)  returns 0x00000000 (0000ms, 9081ms total)
T519C 3015:136 JLINK_ReadReg(FPS28)  returns 0x00000000 (0000ms, 9081ms total)
T519C 3015:136 JLINK_ReadReg(FPS29)  returns 0x00000000 (0000ms, 9081ms total)
T519C 3015:136 JLINK_ReadReg(FPS30)  returns 0x00000000 (0000ms, 9081ms total)
T519C 3015:136 JLINK_ReadReg(FPS31)  returns 0x00000000 (0000ms, 9081ms total)
T539C 3015:136 JLINK_ReadMemEx(0x200010DC, 0x0004 Bytes, ..., Flags = 0x02000000) -- CPU_ReadMem(64 bytes @ 0x200010C0) -- Updating C cache (64 bytes @ 0x200010C0) -- Read from C cache (4 bytes @ 0x200010DC) - Data: D7 14 00 08  returns 0x04 (0001ms, 9082ms total)
T539C 3015:137 JLINK_ReadMemEx(0x200010C8, 0x0004 Bytes, ..., Flags = 0x02000000) -- Read from C cache (4 bytes @ 0x200010C8) - Data: 44 15 00 08  returns 0x04 (0000ms, 9082ms total)
T539C 3015:137 JLINK_ReadMemEx(0x200010CC, 0x0004 Bytes, ..., Flags = 0x02000000) -- Read from C cache (4 bytes @ 0x200010CC) - Data: 44 15 00 08  returns 0x04 (0000ms, 9082ms total)
T539C 3015:137 JLINK_ReadMemEx(0x200010D0, 0x0004 Bytes, ..., Flags = 0x02000000) -- Read from C cache (4 bytes @ 0x200010D0) - Data: 00 00 00 00  returns 0x04 (0000ms, 9082ms total)
T539C 3015:137 JLINK_ReadMemEx(0x200010D4, 0x0004 Bytes, ..., Flags = 0x02000000) -- Read from C cache (4 bytes @ 0x200010D4) - Data: 00 00 00 00  returns 0x04 (0000ms, 9082ms total)
T539C 3015:137 JLINK_ReadMemEx(0x200010D8, 0x0004 Bytes, ..., Flags = 0x02000000) -- Read from C cache (4 bytes @ 0x200010D8) - Data: 00 00 00 00  returns 0x04 (0000ms, 9082ms total)
T539C 3015:137 JLINK_ReadMemEx(0x200010E4, 0x0004 Bytes, ..., Flags = 0x02000000) -- Read from C cache (4 bytes @ 0x200010E4) - Data: A1 02 00 08  returns 0x04 (0000ms, 9082ms total)
T539C 3015:137 JLINK_ReadMemEx(0x00000000, 0x0004 Bytes, ..., Flags = 0x02000000) -- CPU_ReadMem(4 bytes @ 0x00000004) -- CPU_ReadMem(64 bytes @ 0x08000000) -- Updating C cache (64 bytes @ 0x08000000) -- Read from C cache (4 bytes @ 0x08000000) - Data: E8 10 00 20  returns 0x04 (0001ms, 9083ms total)
T539C 3015:139 JLINK_ReadMemEx(0x200010E0, 0x0004 Bytes, ..., Flags = 0x02000000) -- Read from C cache (4 bytes @ 0x200010E0) - Data: AD 14 00 08  returns 0x04 (0000ms, 9083ms total)
T539C 3015:139 JLINK_ReadMemU32(0xE0001004, 0x0001 Items, ...) -- CPU_ReadMem(4 bytes @ 0xE0001004) - Data: 1F F1 D5 00  returns 0x01 (0000ms, 9083ms total)
T539C 3015:149 JLINK_ReadMemEx(0x08001298, 0x003C Bytes, ..., Flags = 0x02000000) -- CPU_ReadMem(128 bytes @ 0x08001280) -- Updating C cache (128 bytes @ 0x08001280) -- Read from C cache (60 bytes @ 0x08001298) - Data: 00 F0 5E F8 87 B2 08 21 A7 F5 80 47 00 25 04 22 ...  returns 0x3C (0001ms, 9084ms total)
T519C 3017:987 JLINK_ReadMemEx(0x0800129C, 0x0002 Bytes, ..., Flags = 0x02000000) -- Read from C cache (2 bytes @ 0x0800129C) - Data: 87 B2  returns 0x02 (0000ms, 9084ms total)
T519C 3017:987 JLINK_Step() -- Read from C cache (2 bytes @ 0x0800129C) -- CPU_ReadMem(4 bytes @ 0xE000ED18) -- CPU_WriteMem(4 bytes @ 0xE000ED18) -- CPU_ReadMem(4 bytes @ 0xE000ED18) -- CPU_WriteMem(4 bytes @ 0xE000ED18) -- Simulated  returns 0x00 (0002ms, 9086ms total)
T519C 3017:989 JLINK_ReadReg(R15 (PC))  returns 0x0800129E (0000ms, 9086ms total)
T519C 3017:989 JLINK_ReadReg(XPSR)  returns 0x01000000 (0000ms, 9086ms total)
T519C 3017:989 JLINK_ReadReg(R0)  returns 0x00EF4015 (0000ms, 9086ms total)
T519C 3017:989 JLINK_ReadReg(R1)  returns 0x00000010 (0000ms, 9086ms total)
T519C 3017:989 JLINK_ReadReg(R2)  returns 0x00000001 (0000ms, 9086ms total)
T519C 3017:989 JLINK_ReadReg(R3)  returns 0x000000A5 (0000ms, 9086ms total)
T519C 3017:989 JLINK_ReadReg(R4)  returns 0x200000C0 (0000ms, 9086ms total)
T519C 3017:989 JLINK_ReadReg(R5)  returns 0x08001544 (0000ms, 9086ms total)
T519C 3017:989 JLINK_ReadReg(R6)  returns 0x00000001 (0000ms, 9086ms total)
T519C 3017:989 JLINK_ReadReg(R7)  returns 0x00004015 (0000ms, 9086ms total)
T519C 3017:989 JLINK_ReadReg(R8)  returns 0x00000000 (0000ms, 9086ms total)
T519C 3017:989 JLINK_ReadReg(R9)  returns 0x00000000 (0000ms, 9086ms total)
T519C 3017:989 JLINK_ReadReg(R10)  returns 0x00000000 (0000ms, 9086ms total)
T519C 3017:989 JLINK_ReadReg(R11)  returns 0x00000000 (0000ms, 9086ms total)
T519C 3017:989 JLINK_ReadReg(R12)  returns 0x0000C000 (0000ms, 9086ms total)
T519C 3017:989 JLINK_ReadReg(R13 (SP))  returns 0x200010C8 (0000ms, 9086ms total)
T519C 3017:989 JLINK_ReadReg(R14)  returns 0x08001391 (0000ms, 9086ms total)
T519C 3017:989 JLINK_ReadReg(R15 (PC))  returns 0x0800129E (0000ms, 9086ms total)
T519C 3017:989 JLINK_ReadReg(XPSR)  returns 0x01000000 (0000ms, 9086ms total)
T519C 3017:989 JLINK_ReadReg(MSP)  returns 0x200010C8 (0000ms, 9086ms total)
T519C 3017:989 JLINK_ReadReg(PSP)  returns 0x00000000 (0000ms, 9086ms total)
T519C 3017:989 JLINK_ReadReg(CFBP)  returns 0x00000000 (0000ms, 9086ms total)
T519C 3017:989 JLINK_ReadReg(FPSCR)  returns 0x00000000 (0000ms, 9086ms total)
T519C 3017:989 JLINK_ReadReg(FPS0)  returns 0x00000000 (0000ms, 9086ms total)
T519C 3017:989 JLINK_ReadReg(FPS1)  returns 0x00000000 (0000ms, 9086ms total)
T519C 3017:989 JLINK_ReadReg(FPS2)  returns 0x00000000 (0000ms, 9086ms total)
T519C 3017:989 JLINK_ReadReg(FPS3)  returns 0x00000000 (0000ms, 9086ms total)
T519C 3017:989 JLINK_ReadReg(FPS4)  returns 0x00000000 (0000ms, 9086ms total)
T519C 3017:989 JLINK_ReadReg(FPS5)  returns 0x00000000 (0000ms, 9086ms total)
T519C 3017:989 JLINK_ReadReg(FPS6)  returns 0x00000000 (0000ms, 9086ms total)
T519C 3017:989 JLINK_ReadReg(FPS7)  returns 0x00000000 (0000ms, 9086ms total)
T519C 3017:989 JLINK_ReadReg(FPS8)  returns 0x00000000 (0000ms, 9086ms total)
T519C 3017:989 JLINK_ReadReg(FPS9)  returns 0x00000000 (0000ms, 9086ms total)
T519C 3017:989 JLINK_ReadReg(FPS10)  returns 0x00000000 (0000ms, 9086ms total)
T519C 3017:989 JLINK_ReadReg(FPS11)  returns 0x00000000 (0000ms, 9086ms total)
T519C 3017:989 JLINK_ReadReg(FPS12)  returns 0x00000000 (0000ms, 9086ms total)
T519C 3017:989 JLINK_ReadReg(FPS13)  returns 0x00000000 (0000ms, 9086ms total)
T519C 3017:989 JLINK_ReadReg(FPS14)  returns 0x00000000 (0000ms, 9086ms total)
T519C 3017:989 JLINK_ReadReg(FPS15)  returns 0x00000000 (0000ms, 9086ms total)
T519C 3017:989 JLINK_ReadReg(FPS16)  returns 0x00000000 (0000ms, 9086ms total)
T519C 3017:989 JLINK_ReadReg(FPS17)  returns 0x00000000 (0000ms, 9086ms total)
T519C 3017:989 JLINK_ReadReg(FPS18)  returns 0x00000000 (0000ms, 9086ms total)
T519C 3017:989 JLINK_ReadReg(FPS19)  returns 0x00000000 (0000ms, 9086ms total)
T519C 3017:989 JLINK_ReadReg(FPS20)  returns 0x00000000 (0000ms, 9086ms total)
T519C 3017:989 JLINK_ReadReg(FPS21)  returns 0x00000000 (0000ms, 9086ms total)
T519C 3017:989 JLINK_ReadReg(FPS22)  returns 0x00000000 (0000ms, 9086ms total)
T519C 3017:989 JLINK_ReadReg(FPS23)  returns 0x00000000 (0000ms, 9086ms total)
T519C 3017:989 JLINK_ReadReg(FPS24)  returns 0x00000000 (0000ms, 9086ms total)
T519C 3017:989 JLINK_ReadReg(FPS25)  returns 0x00000000 (0000ms, 9086ms total)
T519C 3017:990 JLINK_ReadReg(FPS26)  returns 0x00000000 (0000ms, 9087ms total)
T519C 3017:990 JLINK_ReadReg(FPS27)  returns 0x00000000 (0000ms, 9087ms total)
T519C 3017:990 JLINK_ReadReg(FPS28)  returns 0x00000000 (0000ms, 9087ms total)
T519C 3017:990 JLINK_ReadReg(FPS29)  returns 0x00000000 (0000ms, 9087ms total)
T519C 3017:990 JLINK_ReadReg(FPS30)  returns 0x00000000 (0000ms, 9087ms total)
T519C 3017:990 JLINK_ReadReg(FPS31)  returns 0x00000000 (0000ms, 9087ms total)
T539C 3017:990 JLINK_ReadMemEx(0x200010DC, 0x0004 Bytes, ..., Flags = 0x02000000) -- Read from C cache (4 bytes @ 0x200010DC) - Data: D7 14 00 08  returns 0x04 (0000ms, 9087ms total)
T539C 3017:990 JLINK_ReadMemEx(0x200010C8, 0x0004 Bytes, ..., Flags = 0x02000000) -- Read from C cache (4 bytes @ 0x200010C8) - Data: 44 15 00 08  returns 0x04 (0000ms, 9087ms total)
T539C 3017:990 JLINK_ReadMemEx(0x200010CC, 0x0004 Bytes, ..., Flags = 0x02000000) -- Read from C cache (4 bytes @ 0x200010CC) - Data: 44 15 00 08  returns 0x04 (0000ms, 9087ms total)
T539C 3017:990 JLINK_ReadMemEx(0x200010D0, 0x0004 Bytes, ..., Flags = 0x02000000) -- Read from C cache (4 bytes @ 0x200010D0) - Data: 00 00 00 00  returns 0x04 (0000ms, 9087ms total)
T539C 3017:990 JLINK_ReadMemEx(0x200010D4, 0x0004 Bytes, ..., Flags = 0x02000000) -- Read from C cache (4 bytes @ 0x200010D4) - Data: 00 00 00 00  returns 0x04 (0000ms, 9087ms total)
T539C 3017:990 JLINK_ReadMemEx(0x200010D8, 0x0004 Bytes, ..., Flags = 0x02000000) -- Read from C cache (4 bytes @ 0x200010D8) - Data: 00 00 00 00  returns 0x04 (0000ms, 9087ms total)
T539C 3017:990 JLINK_ReadMemEx(0x200010E4, 0x0004 Bytes, ..., Flags = 0x02000000) -- Read from C cache (4 bytes @ 0x200010E4) - Data: A1 02 00 08  returns 0x04 (0000ms, 9087ms total)
T539C 3017:990 JLINK_ReadMemEx(0x00000000, 0x0004 Bytes, ..., Flags = 0x02000000) -- Read from C cache (4 bytes @ 0x08000000) - Data: E8 10 00 20  returns 0x04 (0000ms, 9087ms total)
T539C 3017:990 JLINK_ReadMemEx(0x200010E0, 0x0004 Bytes, ..., Flags = 0x02000000) -- Read from C cache (4 bytes @ 0x200010E0) - Data: AD 14 00 08  returns 0x04 (0000ms, 9087ms total)
T539C 3017:990 JLINK_ReadMemU32(0xE0001004, 0x0001 Items, ...) - Data: 20 F1 D5 00  returns 0x01 (0000ms, 9087ms total)
T539C 3017:995 JLINK_ReadMemEx(0x0800129C, 0x003C Bytes, ..., Flags = 0x02000000) -- Read from C cache (60 bytes @ 0x0800129C) - Data: 87 B2 08 21 A7 F5 80 47 00 25 04 22 02 23 48 01 ...  returns 0x3C (0000ms, 9087ms total)
T519C 3018:676 JLINK_ReadMemEx(0x0800129E, 0x0002 Bytes, ..., Flags = 0x02000000) -- Read from C cache (2 bytes @ 0x0800129E) - Data: 08 21  returns 0x02 (0000ms, 9087ms total)
T519C 3018:676 JLINK_Step() -- Read from C cache (2 bytes @ 0x0800129E) -- Simulated  returns 0x00 (0000ms, 9087ms total)
T519C 3018:676 JLINK_ReadReg(R15 (PC))  returns 0x080012A0 (0000ms, 9087ms total)
T519C 3018:676 JLINK_ReadReg(XPSR)  returns 0x01000000 (0000ms, 9087ms total)
T519C 3018:676 JLINK_Step() -- Read from C cache (2 bytes @ 0x080012A0) -- Read from C cache (2 bytes @ 0x080012A2) -- Simulated  returns 0x00 (0000ms, 9087ms total)
T519C 3018:676 JLINK_ReadReg(R15 (PC))  returns 0x080012A4 (0000ms, 9087ms total)
T519C 3018:676 JLINK_ReadReg(XPSR)  returns 0x01000000 (0000ms, 9087ms total)
T519C 3018:676 JLINK_ReadMemEx(0x080012A2, 0x0002 Bytes, ..., Flags = 0x02000000) -- Read from C cache (2 bytes @ 0x080012A2) - Data: 80 47  returns 0x02 (0000ms, 9087ms total)
T519C 3018:676 JLINK_ReadMemEx(0x080012A4, 0x003C Bytes, ..., Flags = 0x02000000) -- Read from C cache (60 bytes @ 0x080012A4) - Data: 00 25 04 22 02 23 48 01 11 3F 0A 2F 4B D2 DF E8 ...  returns 0x3C (0001ms, 9088ms total)
T519C 3018:677 JLINK_ReadMemEx(0x080012A4, 0x0002 Bytes, ..., Flags = 0x02000000) -- Read from C cache (2 bytes @ 0x080012A4) - Data: 00 25  returns 0x02 (0000ms, 9088ms total)
T519C 3018:677 JLINK_Step() -- Read from C cache (2 bytes @ 0x080012A4) -- Simulated  returns 0x00 (0000ms, 9088ms total)
T519C 3018:677 JLINK_ReadReg(R15 (PC))  returns 0x080012A6 (0000ms, 9088ms total)
T519C 3018:677 JLINK_ReadReg(XPSR)  returns 0x41000000 (0000ms, 9088ms total)
T519C 3018:677 JLINK_ReadReg(R0)  returns 0x00EF4015 (0000ms, 9088ms total)
T519C 3018:677 JLINK_ReadReg(R1)  returns 0x00000008 (0000ms, 9088ms total)
T519C 3018:677 JLINK_ReadReg(R2)  returns 0x00000001 (0000ms, 9088ms total)
T519C 3018:677 JLINK_ReadReg(R3)  returns 0x000000A5 (0000ms, 9088ms total)
T519C 3018:677 JLINK_ReadReg(R4)  returns 0x200000C0 (0000ms, 9088ms total)
T519C 3018:677 JLINK_ReadReg(R5)  returns 0x00000000 (0000ms, 9088ms total)
T519C 3018:677 JLINK_ReadReg(R6)  returns 0x00000001 (0000ms, 9088ms total)
T519C 3018:677 JLINK_ReadReg(R7)  returns 0x00000015 (0000ms, 9088ms total)
T519C 3018:677 JLINK_ReadReg(R8)  returns 0x00000000 (0000ms, 9088ms total)
T519C 3018:677 JLINK_ReadReg(R9)  returns 0x00000000 (0000ms, 9088ms total)
T519C 3018:677 JLINK_ReadReg(R10)  returns 0x00000000 (0000ms, 9088ms total)
T519C 3018:677 JLINK_ReadReg(R11)  returns 0x00000000 (0000ms, 9088ms total)
T519C 3018:677 JLINK_ReadReg(R12)  returns 0x0000C000 (0000ms, 9088ms total)
T519C 3018:677 JLINK_ReadReg(R13 (SP))  returns 0x200010C8 (0000ms, 9088ms total)
T519C 3018:677 JLINK_ReadReg(R14)  returns 0x08001391 (0000ms, 9088ms total)
T519C 3018:677 JLINK_ReadReg(R15 (PC))  returns 0x080012A6 (0000ms, 9088ms total)
T519C 3018:677 JLINK_ReadReg(XPSR)  returns 0x41000000 (0000ms, 9088ms total)
T519C 3018:677 JLINK_ReadReg(MSP)  returns 0x200010C8 (0000ms, 9088ms total)
T519C 3018:677 JLINK_ReadReg(PSP)  returns 0x00000000 (0000ms, 9088ms total)
T519C 3018:677 JLINK_ReadReg(CFBP)  returns 0x00000000 (0000ms, 9088ms total)
T519C 3018:677 JLINK_ReadReg(FPSCR)  returns 0x00000000 (0000ms, 9088ms total)
T519C 3018:677 JLINK_ReadReg(FPS0)  returns 0x00000000 (0000ms, 9088ms total)
T519C 3018:677 JLINK_ReadReg(FPS1)  returns 0x00000000 (0000ms, 9088ms total)
T519C 3018:677 JLINK_ReadReg(FPS2)  returns 0x00000000 (0000ms, 9088ms total)
T519C 3018:677 JLINK_ReadReg(FPS3)  returns 0x00000000 (0000ms, 9088ms total)
T519C 3018:677 JLINK_ReadReg(FPS4)  returns 0x00000000 (0000ms, 9088ms total)
T519C 3018:677 JLINK_ReadReg(FPS5)  returns 0x00000000 (0000ms, 9088ms total)
T519C 3018:677 JLINK_ReadReg(FPS6)  returns 0x00000000 (0000ms, 9088ms total)
T519C 3018:677 JLINK_ReadReg(FPS7)  returns 0x00000000 (0000ms, 9088ms total)
T519C 3018:677 JLINK_ReadReg(FPS8)  returns 0x00000000 (0000ms, 9088ms total)
T519C 3018:677 JLINK_ReadReg(FPS9)  returns 0x00000000 (0000ms, 9088ms total)
T519C 3018:677 JLINK_ReadReg(FPS10)  returns 0x00000000 (0000ms, 9088ms total)
T519C 3018:677 JLINK_ReadReg(FPS11)  returns 0x00000000 (0000ms, 9088ms total)
T519C 3018:677 JLINK_ReadReg(FPS12)  returns 0x00000000 (0000ms, 9088ms total)
T519C 3018:677 JLINK_ReadReg(FPS13)  returns 0x00000000 (0000ms, 9088ms total)
T519C 3018:677 JLINK_ReadReg(FPS14)  returns 0x00000000 (0000ms, 9088ms total)
T519C 3018:677 JLINK_ReadReg(FPS15)  returns 0x00000000 (0000ms, 9088ms total)
T519C 3018:677 JLINK_ReadReg(FPS16)  returns 0x00000000 (0000ms, 9088ms total)
T519C 3018:677 JLINK_ReadReg(FPS17)  returns 0x00000000 (0000ms, 9088ms total)
T519C 3018:677 JLINK_ReadReg(FPS18)  returns 0x00000000 (0000ms, 9088ms total)
T519C 3018:677 JLINK_ReadReg(FPS19)  returns 0x00000000 (0000ms, 9088ms total)
T519C 3018:677 JLINK_ReadReg(FPS20)  returns 0x00000000 (0000ms, 9088ms total)
T519C 3018:677 JLINK_ReadReg(FPS21)  returns 0x00000000 (0000ms, 9088ms total)
T519C 3018:677 JLINK_ReadReg(FPS22)  returns 0x00000000 (0000ms, 9088ms total)
T519C 3018:677 JLINK_ReadReg(FPS23)  returns 0x00000000 (0000ms, 9088ms total)
T519C 3018:677 JLINK_ReadReg(FPS24)  returns 0x00000000 (0000ms, 9088ms total)
T519C 3018:677 JLINK_ReadReg(FPS25)  returns 0x00000000 (0000ms, 9088ms total)
T519C 3018:677 JLINK_ReadReg(FPS26)  returns 0x00000000 (0000ms, 9088ms total)
T519C 3018:677 JLINK_ReadReg(FPS27)  returns 0x00000000 (0000ms, 9088ms total)
T519C 3018:677 JLINK_ReadReg(FPS28)  returns 0x00000000 (0000ms, 9088ms total)
T519C 3018:677 JLINK_ReadReg(FPS29)  returns 0x00000000 (0000ms, 9088ms total)
T519C 3018:677 JLINK_ReadReg(FPS30)  returns 0x00000000 (0000ms, 9088ms total)
T519C 3018:677 JLINK_ReadReg(FPS31)  returns 0x00000000 (0000ms, 9088ms total)
T539C 3018:677 JLINK_ReadMemEx(0x200010DC, 0x0004 Bytes, ..., Flags = 0x02000000) -- Read from C cache (4 bytes @ 0x200010DC) - Data: D7 14 00 08  returns 0x04 (0000ms, 9088ms total)
T539C 3018:677 JLINK_ReadMemEx(0x200010C8, 0x0004 Bytes, ..., Flags = 0x02000000) -- Read from C cache (4 bytes @ 0x200010C8) - Data: 44 15 00 08  returns 0x04 (0000ms, 9088ms total)
T539C 3018:678 JLINK_ReadMemEx(0x200010CC, 0x0004 Bytes, ..., Flags = 0x02000000) -- Read from C cache (4 bytes @ 0x200010CC) - Data: 44 15 00 08  returns 0x04 (0000ms, 9089ms total)
T539C 3018:678 JLINK_ReadMemEx(0x200010D0, 0x0004 Bytes, ..., Flags = 0x02000000) -- Read from C cache (4 bytes @ 0x200010D0) - Data: 00 00 00 00  returns 0x04 (0000ms, 9089ms total)
T539C 3018:678 JLINK_ReadMemEx(0x200010D4, 0x0004 Bytes, ..., Flags = 0x02000000) -- Read from C cache (4 bytes @ 0x200010D4) - Data: 00 00 00 00  returns 0x04 (0000ms, 9089ms total)
T539C 3018:678 JLINK_ReadMemEx(0x200010D8, 0x0004 Bytes, ..., Flags = 0x02000000) -- Read from C cache (4 bytes @ 0x200010D8) - Data: 00 00 00 00  returns 0x04 (0000ms, 9089ms total)
T539C 3018:678 JLINK_ReadMemEx(0x200010E4, 0x0004 Bytes, ..., Flags = 0x02000000) -- Read from C cache (4 bytes @ 0x200010E4) - Data: A1 02 00 08  returns 0x04 (0000ms, 9089ms total)
T539C 3018:678 JLINK_ReadMemEx(0x00000000, 0x0004 Bytes, ..., Flags = 0x02000000) -- Read from C cache (4 bytes @ 0x08000000) - Data: E8 10 00 20  returns 0x04 (0000ms, 9089ms total)
T539C 3018:678 JLINK_ReadMemEx(0x200010E0, 0x0004 Bytes, ..., Flags = 0x02000000) -- Read from C cache (4 bytes @ 0x200010E0) - Data: AD 14 00 08  returns 0x04 (0000ms, 9089ms total)
T539C 3018:678 JLINK_ReadMemU32(0xE0001004, 0x0001 Items, ...) - Data: 23 F1 D5 00  returns 0x01 (0000ms, 9089ms total)
T539C 3018:681 JLINK_ReadMemEx(0x080012A0, 0x003C Bytes, ..., Flags = 0x02000000) -- Read from C cache (60 bytes @ 0x080012A0) - Data: A7 F5 80 47 00 25 04 22 02 23 48 01 11 3F 0A 2F ...  returns 0x3C (0000ms, 9089ms total)
T519C 3019:428 JLINK_ReadMemEx(0x080012A6, 0x0002 Bytes, ..., Flags = 0x02000000) -- Read from C cache (2 bytes @ 0x080012A6) - Data: 04 22  returns 0x02 (0000ms, 9089ms total)
T519C 3019:428 JLINK_Step() -- Read from C cache (2 bytes @ 0x080012A6) -- Simulated  returns 0x00 (0000ms, 9089ms total)
T519C 3019:428 JLINK_ReadReg(R15 (PC))  returns 0x080012A8 (0000ms, 9089ms total)
T519C 3019:428 JLINK_ReadReg(XPSR)  returns 0x01000000 (0000ms, 9089ms total)
T519C 3019:428 JLINK_ReadReg(R0)  returns 0x00EF4015 (0000ms, 9089ms total)
T519C 3019:428 JLINK_ReadReg(R1)  returns 0x00000008 (0000ms, 9089ms total)
T519C 3019:428 JLINK_ReadReg(R2)  returns 0x00000004 (0000ms, 9089ms total)
T519C 3019:428 JLINK_ReadReg(R3)  returns 0x000000A5 (0000ms, 9089ms total)
T519C 3019:428 JLINK_ReadReg(R4)  returns 0x200000C0 (0000ms, 9089ms total)
T519C 3019:428 JLINK_ReadReg(R5)  returns 0x00000000 (0000ms, 9089ms total)
T519C 3019:428 JLINK_ReadReg(R6)  returns 0x00000001 (0000ms, 9089ms total)
T519C 3019:428 JLINK_ReadReg(R7)  returns 0x00000015 (0000ms, 9089ms total)
T519C 3019:428 JLINK_ReadReg(R8)  returns 0x00000000 (0000ms, 9089ms total)
T519C 3019:428 JLINK_ReadReg(R9)  returns 0x00000000 (0000ms, 9089ms total)
T519C 3019:428 JLINK_ReadReg(R10)  returns 0x00000000 (0000ms, 9089ms total)
T519C 3019:429 JLINK_ReadReg(R11)  returns 0x00000000 (0000ms, 9089ms total)
T519C 3019:429 JLINK_ReadReg(R12)  returns 0x0000C000 (0000ms, 9089ms total)
T519C 3019:429 JLINK_ReadReg(R13 (SP))  returns 0x200010C8 (0000ms, 9089ms total)
T519C 3019:429 JLINK_ReadReg(R14)  returns 0x08001391 (0000ms, 9089ms total)
T519C 3019:429 JLINK_ReadReg(R15 (PC))  returns 0x080012A8 (0000ms, 9089ms total)
T519C 3019:429 JLINK_ReadReg(XPSR)  returns 0x01000000 (0000ms, 9089ms total)
T519C 3019:429 JLINK_ReadReg(MSP)  returns 0x200010C8 (0000ms, 9089ms total)
T519C 3019:429 JLINK_ReadReg(PSP)  returns 0x00000000 (0000ms, 9089ms total)
T519C 3019:429 JLINK_ReadReg(CFBP)  returns 0x00000000 (0000ms, 9089ms total)
T519C 3019:429 JLINK_ReadReg(FPSCR)  returns 0x00000000 (0000ms, 9089ms total)
T519C 3019:429 JLINK_ReadReg(FPS0)  returns 0x00000000 (0000ms, 9089ms total)
T519C 3019:429 JLINK_ReadReg(FPS1)  returns 0x00000000 (0000ms, 9089ms total)
T519C 3019:429 JLINK_ReadReg(FPS2)  returns 0x00000000 (0000ms, 9089ms total)
T519C 3019:429 JLINK_ReadReg(FPS3)  returns 0x00000000 (0000ms, 9089ms total)
T519C 3019:429 JLINK_ReadReg(FPS4)  returns 0x00000000 (0000ms, 9089ms total)
T519C 3019:429 JLINK_ReadReg(FPS5)  returns 0x00000000 (0000ms, 9089ms total)
T519C 3019:429 JLINK_ReadReg(FPS6)  returns 0x00000000 (0000ms, 9089ms total)
T519C 3019:429 JLINK_ReadReg(FPS7)  returns 0x00000000 (0000ms, 9089ms total)
T519C 3019:429 JLINK_ReadReg(FPS8)  returns 0x00000000 (0000ms, 9089ms total)
